! FILENAME:     PN918.Y2P      VERSION: 12.0
! NEC PART NUMBER: NPN918           DATE: 12/96
! BIAS CONDITIONS: VCE=10V, IC=5MA
# MHZ Y RI R 1000
! Mhz	gi	bi	gf	bf	gr	br	go	bo
  20.00	1.250	2.000	80.000	-27.00	-0.10	-0.10	0.100	0.200
  30.00 1.900	2.250	68.000	-32.00  -0.10	-0.20	0.100	0.500
  40.00 2.500	2.500	60.000	-34.00  -0.10	-0.25	0.100	0.700
  50.00 2.600	2.700	52.000	-36.00  -0.10	-0.30	0.100	0.900
  60.00 2.700	3.100	48.000	-38.00  -0.10	-0.40	0.100	1.100
  70.00 2.800	3.200	45.000	-40.00  -0.10	-0.50	0.100	1.250
  80.00 3.200	3.800	42.000	-40.00  -0.10	-0.60	0.100	1.500
  90.00 3.700	3.900	40.000	-40.00  -0.10	-0.70	0.100	1.650
  100.0 3.800	4.800	37.000	-40.00  -0.10	-0.75	0.100	1.800
  110.0 4.500	5.000	35.000	-40.00  -0.10	-0.80	0.100	1.900
  120.0 4.900	5.200	32.000	-40.00  -0.10	-0.90	0.100	2.000
  130.0 5.000	5.400	30.000	-40.00  -0.10	-0.95	0.100	2.100
  140.0 5.100	5.600	27.000	-40.00  -0.10	-1.05	0.100	2.200
  150.0 5.300	5.900	25.000	-40.00  -0.10	-1.10	0.100	2.400
  160.0 5.500	6.200	24.000	-40.00  -0.10	-1.25	0.100	2.500
  170.0 5.700	6.800	23.000	-40.00  -0.10	-1.27	0.100	2.650
  180.0 6.000	7.000	22.000	-40.00  -0.10	-1.30	0.100	2.750
  190.0 6.400	7.100	21.000	-40.00  -0.10	-1.35	0.100	2.900
  200.0 6.800	7.500	20.000	-39.00  -0.10	-1.40	0.100	3.100
  210.0	7.000	7.800	19.000	-38.90	-0.10	-1.50	0.100	3.200	 
  220.0	7.300	8.100	18.000	-38.70	-0.10	-1.55	0.100	3.400
  230.0	7.500	8.300	17.000	-37.90	-0.10	-1.62	0.100	3.510
  240.0	7.800	8.600	16.000	-37.80	-0.10	-1.70	0.100	3.700
  250.0	8.100	8.900	15.000	-37.50	-0.10	-1.79	0.100	3.750
